
T2F2C 000:046 SEGGER J-Link V6.10i Log File (0004ms, 0027ms total)
T2F2C 000:046 DLL Compiled: Oct 25 2016 19:31:51 (0004ms, 0027ms total)
T2F2C 000:046 Logging started @ 2017-07-19 17:08 (0004ms, 0027ms total)
T2F2C 000:050 JLINK_SetWarnOutHandler(...) (0000ms, 0027ms total)
T2F2C 000:050 JLINK_OpenEx(...)
Firmware: J-Link ARM-OB STM32 compiled Aug 22 2012 19:52:04
Hardware: V7.00
S/N: 20090928
Feature(s): RDI,FlashDL,FlashBP,JFlash,GDBFullWEBSRV Webserver running on local port 19080 (0021ms, 0048ms total)
T2F2C 000:050   returns O.K. (0021ms, 0048ms total)
T2F2C 000:071 JLINK_SetErrorOutHandler(...) (0000ms, 0048ms total)
T2F2C 000:071 JLINK_ExecCommand("ProjectFile = "D:\Action\LABTEST\TemplateForCAN\MDK-ARM\JLinkSettings.ini"", ...).   returns 0x00 (0134ms, 0182ms total)
T2F2C 000:205 JLINK_ExecCommand("Device = STM32F405RGTx", ...). Device "STM32F405RG" selected.  returns 0x00 (0001ms, 0183ms total)
T2F2C 000:206 JLINK_ExecCommand("DisableConnectionTimeout", ...).   returns 0x01 (0000ms, 0183ms total)
T2F2C 000:206 JLINK_GetHardwareVersion()  returns 0x11170 (0000ms, 0183ms total)
T2F2C 000:206 JLINK_GetDLLVersion()  returns 61009 (0000ms, 0183ms total)
T2F2C 000:206 JLINK_GetFirmwareString(...) (0000ms, 0183ms total)
T2F2C 000:206 JLINK_GetDLLVersion()  returns 61009 (0000ms, 0183ms total)
T2F2C 000:206 JLINK_GetCompileDateTime() (0000ms, 0183ms total)
T2F2C 000:206 JLINK_GetFirmwareString(...) (0000ms, 0183ms total)
T2F2C 000:206 JLINK_GetHardwareVersion()  returns 0x11170 (0000ms, 0183ms total)
T2F2C 000:206 JLINK_TIF_Select(JLINKARM_TIF_SWD)  returns 0x00 (0001ms, 0184ms total)
T2F2C 000:207 JLINK_SetSpeed(200) (0000ms, 0184ms total)
T2F2C 000:207 JLINK_GetId() >0x108 TIF>Found SWD-DP with ID 0x2BA01477 >0x0D TIF> >0x28 TIF> >0x0D TIF> >0x28 TIF> >0x0D TIF> >0x28 TIF> >0x0D TIF> >0x28 TIF> >0x0D TIF> >0x21 TIF> >0x0D TIF> >0x28 TIF> >0x0D TIF> >0x28 TIF> >0x0D TIF> >0x28 TIF> >0x0D TIF> >0x21 TIF> >0x0D TIF> >0x21 TIF> >0x0D TIF> >0x28 TIF> >0x0D TIF> >0x21 TIF> >0x0D TIF> >0x21 TIF> >0x0D TIF> >0x28 TIF> >0x0D TIF> >0x28 TIF> >0x0D TIF> >0x28 TIF> >0x0D TIF> >0x21 TIF> >0x0D TIF> >0x21 TIF> >0x0D TIF> >0x28 TIF> >0x0D TIF>
 >0x28 TIF> >0x0D TIF> >0x28 TIF> >0x0D TIF> >0x21 TIF> >0x0D TIF> >0x21 TIF> >0x0D TIF> >0x28 TIF> >0x0D TIF> >0x21 TIF> >0x0D TIF> >0x21 TIF> >0x0D TIF> >0x28 TIF> >0x0D TIF> >0x21 TIF> >0x0D TIF> >0x21 TIF> >0x108 TIF>Found SWD-DP with ID 0x2BA01477 >0x0D TIF> >0x28 TIF> >0x0D TIF> >0x28 TIF> >0x0D TIF> >0x28 TIF> >0x0D TIF> >0x28 TIF> >0x0D TIF> >0x21 TIF> >0x0D TIF> >0x28 TIF> >0x0D TIF> >0x28 TIF> >0x0D TIF> >0x21 TIF> >0x0D TIF> >0x21 TIF> >0x0D TIF> >0x21 TIF>AP-IDR: 0x24770011, Type: AHB-AP
 >0x0D TIF> >0x28 TIF> >0x0D TIF> >0x28 TIF> >0x0D TIF> >0x28 TIF> >0x0D TIF> >0x21 TIF> >0x0D TIF> >0x21 TIF> >0x0D TIF> >0x28 TIF> >0x0D TIF> >0x21 TIF> >0x0D TIF> >0x21 TIF>Found Cortex-M4 r0p1, Little endian. -- CPU_ReadMem(4 bytes @ 0xE000EDF0) -- CPU_WriteMem(4 bytes @ 0xE000EDF0) -- CPU_ReadMem(4 bytes @ 0xE0002000)FPUnit: 6 code (BP) slots and 2 literal slots -- CPU_ReadMem(4 bytes @ 0xE000EDFC) -- CPU_WriteMem(4 bytes @ 0xE000EDFC) -- CPU_ReadMem(4 bytes @ 0xE0001000)
 -- CPU_WriteMem(4 bytes @ 0xE0001000) -- CPU_ReadMem(4 bytes @ 0xE000ED88) -- CPU_WriteMem(4 bytes @ 0xE000ED88) -- CPU_ReadMem(4 bytes @ 0xE000ED88) -- CPU_WriteMem(4 bytes @ 0xE000ED88)CoreSight components:ROMTbl 0 @ E00FF000 -- CPU_ReadMem(16 bytes @ 0xE00FF000) -- CPU_ReadMem(16 bytes @ 0xE000EFF0) -- CPU_ReadMem(16 bytes @ 0xE000EFE0)ROMTbl 0 [0]: FFF0F000, CID: B105E00D, PID: 000BB00C SCS -- CPU_ReadMem(16 bytes @ 0xE0001FF0) -- CPU_ReadMem(16 bytes @ 0xE0001FE0)
ROMTbl 0 [1]: FFF02000, CID: B105E00D, PID: 003BB002 DWT -- CPU_ReadMem(16 bytes @ 0xE0002FF0) -- CPU_ReadMem(16 bytes @ 0xE0002FE0)ROMTbl 0 [2]: FFF03000, CID: B105E00D, PID: 002BB003 FPB -- CPU_ReadMem(16 bytes @ 0xE0000FF0) -- CPU_ReadMem(16 bytes @ 0xE0000FE0)ROMTbl 0 [3]: FFF01000, CID: B105E00D, PID: 003BB001 ITM -- CPU_ReadMem(16 bytes @ 0xE00FF010) -- CPU_ReadMem(16 bytes @ 0xE0040FF0) -- CPU_ReadMem(16 bytes @ 0xE0040FE0)ROMTbl 0 [4]: FFF41000, CID: B105900D, PID: 000BB9A1 TPIU
 -- CPU_ReadMem(16 bytes @ 0xE0041FF0) -- CPU_ReadMem(16 bytes @ 0xE0041FE0)ROMTbl 0 [5]: FFF42000, CID: B105900D, PID: 000BB925 ETM >0x0D TIF> >0x21 TIF>  returns 0x2BA01477 (0101ms, 0285ms total)
T2F2C 000:308 JLINK_GetDLLVersion()  returns 61009 (0000ms, 0285ms total)
T2F2C 000:308 JLINK_CORE_GetFound()  returns 0xE0000FF (0000ms, 0285ms total)
T2F2C 000:308 JLINK_GetDebugInfo(0x100) -- Value=0xE00FF000  returns 0x00 (0000ms, 0285ms total)
T2F2C 000:309 JLINK_GetDebugInfo(0x100) -- Value=0xE00FF000  returns 0x00 (0000ms, 0285ms total)
T2F2C 000:309 JLINK_GetDebugInfo(0x101) -- Value=0xE0041000  returns 0x00 (0000ms, 0285ms total)
T2F2C 000:309 JLINK_GetDebugInfo(0x102) -- Value=0x00000000  returns 0x00 (0000ms, 0285ms total)
T2F2C 000:309 JLINK_GetDebugInfo(0x103) -- Value=0xE0040000  returns 0x00 (0000ms, 0285ms total)
T2F2C 000:309 JLINK_GetDebugInfo(0x104) -- Value=0xE0000000  returns 0x00 (0000ms, 0285ms total)
T2F2C 000:309 JLINK_GetDebugInfo(0x105) -- Value=0xE0001000  returns 0x00 (0000ms, 0285ms total)
T2F2C 000:309 JLINK_GetDebugInfo(0x106) -- Value=0xE0002000  returns 0x00 (0000ms, 0285ms total)
T2F2C 000:309 JLINK_GetDebugInfo(0x107) -- Value=0xE000E000  returns 0x00 (0000ms, 0285ms total)
T2F2C 000:309 JLINK_GetDebugInfo(0x10C) -- Value=0xE000EDF0  returns 0x00 (0000ms, 0285ms total)
T2F2C 000:309 JLINK_ReadMemU32(0xE000EF40, 0x0001 Items, ...) -- CPU is running -- CPU_ReadMem(4 bytes @ 0xE000EF40) - Data: 21 00 11 10  returns 0x01 (0002ms, 0287ms total)
T2F2C 000:311 JLINK_ReadMemU32(0xE000EF44, 0x0001 Items, ...) -- CPU is running -- CPU_ReadMem(4 bytes @ 0xE000EF44) - Data: 11 00 00 11  returns 0x01 (0002ms, 0289ms total)
T2F2C 000:313 JLINK_ReadMemU32(0xE000ED00, 0x0001 Items, ...) -- CPU is running -- CPU_ReadMem(4 bytes @ 0xE000ED00) - Data: 41 C2 0F 41  returns 0x01 (0002ms, 0291ms total)
T2F2C 000:315 JLINK_SetResetType(JLINKARM_RESET_TYPE_NORMAL)  returns JLINKARM_RESET_TYPE_NORMAL (0000ms, 0291ms total)
T2F2C 000:315 JLINK_Reset() -- CPU is running -- CPU_WriteMem(4 bytes @ 0xE000EDF0) -- CPU is running -- CPU_WriteMem(4 bytes @ 0xE000EDFC) >0x35 TIF> -- CPU is running -- CPU_WriteMem(4 bytes @ 0xE000ED0C) -- CPU is running -- CPU_ReadMem(4 bytes @ 0xE000EDF0) -- CPU is running -- CPU_ReadMem(4 bytes @ 0xE000EDF0) -- CPU is running -- CPU_WriteMem(4 bytes @ 0xE000EDF0) -- CPU is running -- CPU_WriteMem(4 bytes @ 0xE000EDFC) -- CPU is running -- CPU_ReadMem(4 bytes @ 0xE000EDF0)
 -- CPU_WriteMem(4 bytes @ 0xE0002000) -- CPU_ReadMem(4 bytes @ 0xE000EDFC) -- CPU_ReadMem(4 bytes @ 0xE0001000) (0055ms, 0346ms total)
T2F2C 000:371 JLINK_ReadReg(R15 (PC))  returns 0x0800020C (0000ms, 0347ms total)
T2F2C 000:371 JLINK_ReadReg(XPSR)  returns 0x01000000 (0000ms, 0347ms total)
T2F2C 000:371 JLINK_Halt()  returns 0x00 (0000ms, 0347ms total)
T2F2C 000:371 JLINK_IsHalted()  returns TRUE (0000ms, 0347ms total)
T2F2C 000:371 JLINK_ReadMemU32(0xE000EDF0, 0x0001 Items, ...) -- CPU_ReadMem(4 bytes @ 0xE000EDF0) - Data: 03 00 03 00  returns 0x01 (0002ms, 0349ms total)
T2F2C 000:373 JLINK_WriteU32(0xE000EDF0, 0xA05F0003) -- CPU_WriteMem(4 bytes @ 0xE000EDF0)  returns 0x00 (0002ms, 0351ms total)
T2F2C 000:375 JLINK_WriteU32(0xE000EDFC, 0x01000000) -- CPU_WriteMem(4 bytes @ 0xE000EDFC)  returns 0x00 (0002ms, 0353ms total)
T2F2C 000:377 JLINK_GetHWStatus(...)  returns 0x00 (0001ms, 0354ms total)
T2F2C 000:378 JLINK_GetNumBPUnits(Type = 0xFFFFFF00)  returns 0x06 (0000ms, 0354ms total)
T2F2C 000:378 JLINK_GetNumBPUnits(Type = 0xF0)  returns 0x2000 (0000ms, 0354ms total)
T2F2C 000:378 JLINK_GetNumWPUnits()  returns 0x04 (0000ms, 0354ms total)
T2F2C 000:378 JLINK_GetSpeed()  returns 0xC8 (0000ms, 0354ms total)
T2F2C 000:378 JLINK_ReadMemU32(0xE000E004, 0x0001 Items, ...) -- CPU_ReadMem(4 bytes @ 0xE000E004) - Data: 02 00 00 00  returns 0x01 (0002ms, 0356ms total)
T2F2C 000:380 JLINK_ReadMemU32(0xE000E004, 0x0001 Items, ...) -- CPU_ReadMem(4 bytes @ 0xE000E004) - Data: 02 00 00 00  returns 0x01 (0002ms, 0358ms total)
T2F2C 000:382 JLINK_WriteMem(0xE0001000, 0x001C Bytes, ...) - Data: 01 00 00 00 00 00 00 00 00 00 00 00 00 00 00 00 ... -- CPU_WriteMem(28 bytes @ 0xE0001000)  returns 0x1C (0005ms, 0363ms total)
T2F2C 000:387 JLINK_ReadMem (0xE0001000, 0x001C Bytes, ...) -- CPU_ReadMem(28 bytes @ 0xE0001000) - Data: 01 00 00 40 00 00 00 00 00 00 00 00 00 00 00 00 ...  returns 0x00 (0003ms, 0366ms total)
T2F2C 000:390 JLINK_ReadReg(R15 (PC))  returns 0x0800020C (0000ms, 0366ms total)
T2F2C 000:390 JLINK_ReadReg(XPSR)  returns 0x01000000 (0000ms, 0366ms total)
T2F2C 000:459 JLINK_SetResetType(JLINKARM_RESET_TYPE_NORMAL)  returns JLINKARM_RESET_TYPE_NORMAL (0001ms, 0367ms total)
T2F2C 000:460 JLINK_Reset() -- CPU_WriteMem(4 bytes @ 0xE000EDF0) -- CPU_WriteMem(4 bytes @ 0xE000EDFC) >0x35 TIF> -- CPU_WriteMem(4 bytes @ 0xE000ED0C) -- CPU_ReadMem(4 bytes @ 0xE000EDF0) -- CPU_ReadMem(4 bytes @ 0xE000EDF0) -- CPU_WriteMem(4 bytes @ 0xE000EDF0) -- CPU_WriteMem(4 bytes @ 0xE000EDFC) -- CPU is running -- CPU_ReadMem(4 bytes @ 0xE000EDF0) -- CPU_WriteMem(4 bytes @ 0xE0002000) -- CPU_ReadMem(4 bytes @ 0xE000EDFC) -- CPU_ReadMem(4 bytes @ 0xE0001000) (0055ms, 0422ms total)
T2F2C 000:515 JLINK_ReadReg(R15 (PC))  returns 0x0800020C (0000ms, 0422ms total)
T2F2C 000:515 JLINK_ReadReg(XPSR)  returns 0x01000000 (0000ms, 0422ms total)
T2F2C 000:515 JLINK_ReadMem (0x0800020C, 0x003C Bytes, ...) -- CPU_ReadMem(128 bytes @ 0x08000200) -- Updating C cache (128 bytes @ 0x08000200) -- Read from C cache (60 bytes @ 0x0800020C) - Data: 09 48 80 47 09 48 00 47 FE E7 FE E7 FE E7 FE E7 ...  returns 0x00 (0011ms, 0433ms total)
T1F44 002:033 JLINK_SetBPEx(Addr = 0x08000DC4, Type = 0xFFFFFFF2)  returns 0x00000001 (0000ms, 0433ms total)
T1F44 002:033 JLINK_Go() -- CPU_WriteMem(4 bytes @ 0xE0002000) -- CPU_ReadMem(4 bytes @ 0xE0001000) -- CPU_WriteMem(4 bytes @ 0xE0002008) -- CPU_WriteMem(4 bytes @ 0xE000200C) -- CPU_WriteMem(4 bytes @ 0xE0002010) -- CPU_WriteMem(4 bytes @ 0xE0002014) -- CPU_WriteMem(4 bytes @ 0xE0002018) -- CPU_WriteMem(4 bytes @ 0xE000201C) -- CPU_WriteMem(4 bytes @ 0xE0001004) (0025ms, 0458ms total)
T1F44 002:159 JLINK_IsHalted()  returns TRUE (0021ms, 0479ms total)
T1F44 002:180 JLINK_Halt()  returns 0x00 (0000ms, 0458ms total)
T1F44 002:180 JLINK_IsHalted()  returns TRUE (0000ms, 0458ms total)
T1F44 002:180 JLINK_IsHalted()  returns TRUE (0000ms, 0458ms total)
T1F44 002:180 JLINK_IsHalted()  returns TRUE (0000ms, 0458ms total)
T1F44 002:180 JLINK_ReadReg(R15 (PC))  returns 0x08000DC4 (0000ms, 0458ms total)
T1F44 002:180 JLINK_ReadReg(XPSR)  returns 0x21000000 (0000ms, 0458ms total)
T1F44 002:180 JLINK_ClrBPEx(BPHandle = 0x00000001)  returns 0x00 (0000ms, 0458ms total)
T1F44 002:180 JLINK_ReadMemU32(0xE000ED30, 0x0001 Items, ...) -- CPU_ReadMem(4 bytes @ 0xE000ED30) - Data: 03 00 00 00  returns 0x01 (0002ms, 0460ms total)
T1F44 002:182 JLINK_ReadMemU32(0xE0001028, 0x0001 Items, ...) -- CPU_ReadMem(4 bytes @ 0xE0001028) - Data: 00 00 00 00  returns 0x01 (0003ms, 0463ms total)
T1F44 002:185 JLINK_ReadMemU32(0xE0001038, 0x0001 Items, ...) -- CPU_ReadMem(4 bytes @ 0xE0001038) - Data: 00 02 00 00  returns 0x01 (0002ms, 0465ms total)
T1F44 002:187 JLINK_ReadMemU32(0xE0001048, 0x0001 Items, ...) -- CPU_ReadMem(4 bytes @ 0xE0001048) - Data: 00 00 00 00  returns 0x01 (0003ms, 0468ms total)
T1F44 002:190 JLINK_ReadMemU32(0xE0001058, 0x0001 Items, ...) -- CPU_ReadMem(4 bytes @ 0xE0001058) - Data: 00 00 00 00  returns 0x01 (0002ms, 0470ms total)
T1F44 002:192 JLINK_ReadReg(R0)  returns 0x20000078 (0000ms, 0470ms total)
T1F44 002:192 JLINK_ReadReg(R1)  returns 0x20004278 (0000ms, 0470ms total)
T1F44 002:192 JLINK_ReadReg(R2)  returns 0x20004278 (0000ms, 0470ms total)
T1F44 002:192 JLINK_ReadReg(R3)  returns 0x20004278 (0000ms, 0470ms total)
T1F44 002:192 JLINK_ReadReg(R4)  returns 0x00000000 (0000ms, 0470ms total)
T1F44 002:192 JLINK_ReadReg(R5)  returns 0x20000014 (0000ms, 0470ms total)
T1F44 002:192 JLINK_ReadReg(R6)  returns 0x00000000 (0000ms, 0470ms total)
T1F44 002:192 JLINK_ReadReg(R7)  returns 0x00000000 (0001ms, 0471ms total)
T1F44 002:193 JLINK_ReadReg(R8)  returns 0x00000000 (0000ms, 0471ms total)
T1F44 002:193 JLINK_ReadReg(R9)  returns 0x00000000 (0000ms, 0471ms total)
T1F44 002:193 JLINK_ReadReg(R10)  returns 0x08000E20 (0000ms, 0471ms total)
T1F44 002:193 JLINK_ReadReg(R11)  returns 0x00000000 (0000ms, 0471ms total)
T1F44 002:193 JLINK_ReadReg(R12)  returns 0x20000054 (0000ms, 0471ms total)
T1F44 002:193 JLINK_ReadReg(R13 (SP))  returns 0x20004678 (0000ms, 0471ms total)
T1F44 002:193 JLINK_ReadReg(R14)  returns 0x080001FB (0000ms, 0471ms total)
T1F44 002:193 JLINK_ReadReg(R15 (PC))  returns 0x08000DC4 (0000ms, 0471ms total)
T1F44 002:193 JLINK_ReadReg(XPSR)  returns 0x21000000 (0000ms, 0471ms total)
T1F44 002:193 JLINK_ReadReg(MSP)  returns 0x20004678 (0000ms, 0471ms total)
T1F44 002:193 JLINK_ReadReg(PSP)  returns 0x00000000 (0000ms, 0471ms total)
T1F44 002:193 JLINK_ReadReg(CFBP)  returns 0x04000000 (0000ms, 0471ms total)
T1F44 002:193 JLINK_ReadReg(FPSCR)  returns 0x03000000 (0033ms, 0504ms total)
T1F44 002:226 JLINK_ReadReg(FPS0)  returns 0x00000000 (0000ms, 0504ms total)
T1F44 002:226 JLINK_ReadReg(FPS1)  returns 0x00000000 (0000ms, 0504ms total)
T1F44 002:227 JLINK_ReadReg(FPS2)  returns 0x00000000 (0000ms, 0505ms total)
T1F44 002:227 JLINK_ReadReg(FPS3)  returns 0x00000000 (0000ms, 0505ms total)
T1F44 002:227 JLINK_ReadReg(FPS4)  returns 0x00000000 (0000ms, 0505ms total)
T1F44 002:227 JLINK_ReadReg(FPS5)  returns 0x00000000 (0000ms, 0505ms total)
T1F44 002:227 JLINK_ReadReg(FPS6)  returns 0x00000000 (0000ms, 0505ms total)
T1F44 002:227 JLINK_ReadReg(FPS7)  returns 0x00000000 (0000ms, 0505ms total)
T1F44 002:227 JLINK_ReadReg(FPS8)  returns 0x00000000 (0000ms, 0505ms total)
T1F44 002:227 JLINK_ReadReg(FPS9)  returns 0x00000000 (0000ms, 0505ms total)
T1F44 002:227 JLINK_ReadReg(FPS10)  returns 0x00000000 (0000ms, 0505ms total)
T1F44 002:227 JLINK_ReadReg(FPS11)  returns 0x00000000 (0000ms, 0505ms total)
T1F44 002:227 JLINK_ReadReg(FPS12)  returns 0x00000000 (0000ms, 0505ms total)
T1F44 002:227 JLINK_ReadReg(FPS13)  returns 0x00000000 (0000ms, 0505ms total)
T1F44 002:227 JLINK_ReadReg(FPS14)  returns 0x00000000 (0000ms, 0505ms total)
T1F44 002:227 JLINK_ReadReg(FPS15)  returns 0x00000000 (0000ms, 0505ms total)
T1F44 002:227 JLINK_ReadReg(FPS16)  returns 0x00000000 (0000ms, 0505ms total)
T1F44 002:227 JLINK_ReadReg(FPS17)  returns 0x00000000 (0000ms, 0505ms total)
T1F44 002:227 JLINK_ReadReg(FPS18)  returns 0x00000000 (0000ms, 0505ms total)
T1F44 002:227 JLINK_ReadReg(FPS19)  returns 0x00000000 (0000ms, 0505ms total)
T1F44 002:227 JLINK_ReadReg(FPS20)  returns 0x00000000 (0000ms, 0505ms total)
T1F44 002:227 JLINK_ReadReg(FPS21)  returns 0x00000000 (0000ms, 0505ms total)
T1F44 002:227 JLINK_ReadReg(FPS22)  returns 0x00000000 (0000ms, 0505ms total)
T1F44 002:227 JLINK_ReadReg(FPS23)  returns 0x00000000 (0000ms, 0505ms total)
T1F44 002:227 JLINK_ReadReg(FPS24)  returns 0x00000000 (0000ms, 0505ms total)
T1F44 002:227 JLINK_ReadReg(FPS25)  returns 0x00000000 (0000ms, 0505ms total)
T1F44 002:227 JLINK_ReadReg(FPS26)  returns 0x00000000 (0000ms, 0505ms total)
T1F44 002:227 JLINK_ReadReg(FPS27)  returns 0x00000000 (0000ms, 0505ms total)
T1F44 002:227 JLINK_ReadReg(FPS28)  returns 0x00000000 (0000ms, 0505ms total)
T1F44 002:227 JLINK_ReadReg(FPS29)  returns 0x00000000 (0000ms, 0505ms total)
T1F44 002:227 JLINK_ReadReg(FPS30)  returns 0x00000000 (0000ms, 0505ms total)
T1F44 002:227 JLINK_ReadReg(FPS31)  returns 0x00000000 (0000ms, 0505ms total)
T2F2C 002:227 JLINK_ReadMemU32(0xE0001004, 0x0001 Items, ...) -- CPU_ReadMem(4 bytes @ 0xE0001004) - Data: 93 4C 00 00  returns 0x01 (0003ms, 0508ms total)
T1F44 006:138 JLINK_ReadMem (0x08000DC4, 0x003C Bytes, ...) -- CPU_ReadMem(64 bytes @ 0x08000DC0) -- Updating C cache (64 bytes @ 0x08000DC0) -- Read from C cache (60 bytes @ 0x08000DC4) - Data: 10 B5 FF F7 F1 FD FF F7 7F FA FF F7 0B FB 00 24 ...  returns 0x00 (0006ms, 0514ms total)
T1F44 006:144 JLINK_Step() -- Read from C cache (2 bytes @ 0x08000DC4) -- CPU_ReadMem(4 bytes @ 0xE000ED18) -- CPU_WriteMem(4 bytes @ 0xE000ED18) -- CPU_ReadMem(4 bytes @ 0xE000ED18) -- CPU_WriteMem(4 bytes @ 0xE000ED18) -- CPU_WriteMem(8 bytes @ 0x20004670) -- Simulated  returns 0x00 (0014ms, 0528ms total)
T1F44 006:158 JLINK_ReadReg(R15 (PC))  returns 0x08000DC6 (0000ms, 0528ms total)
T1F44 006:158 JLINK_ReadReg(XPSR)  returns 0x21000000 (0000ms, 0528ms total)
T1F44 006:158 JLINK_ReadReg(R0)  returns 0x20000078 (0000ms, 0528ms total)
T1F44 006:158 JLINK_ReadReg(R1)  returns 0x20004278 (0000ms, 0528ms total)
T1F44 006:158 JLINK_ReadReg(R2)  returns 0x20004278 (0000ms, 0528ms total)
T1F44 006:158 JLINK_ReadReg(R3)  returns 0x20004278 (0000ms, 0528ms total)
T1F44 006:158 JLINK_ReadReg(R4)  returns 0x00000000 (0000ms, 0528ms total)
T1F44 006:158 JLINK_ReadReg(R5)  returns 0x20000014 (0000ms, 0528ms total)
T1F44 006:158 JLINK_ReadReg(R6)  returns 0x00000000 (0001ms, 0529ms total)
T1F44 006:159 JLINK_ReadReg(R7)  returns 0x00000000 (0000ms, 0529ms total)
T1F44 006:159 JLINK_ReadReg(R8)  returns 0x00000000 (0000ms, 0529ms total)
T1F44 006:159 JLINK_ReadReg(R9)  returns 0x00000000 (0000ms, 0529ms total)
T1F44 006:159 JLINK_ReadReg(R10)  returns 0x08000E20 (0000ms, 0529ms total)
T1F44 006:159 JLINK_ReadReg(R11)  returns 0x00000000 (0000ms, 0529ms total)
T1F44 006:159 JLINK_ReadReg(R12)  returns 0x20000054 (0000ms, 0529ms total)
T1F44 006:159 JLINK_ReadReg(R13 (SP))  returns 0x20004670 (0000ms, 0529ms total)
T1F44 006:159 JLINK_ReadReg(R14)  returns 0x080001FB (0000ms, 0529ms total)
T1F44 006:159 JLINK_ReadReg(R15 (PC))  returns 0x08000DC6 (0000ms, 0529ms total)
T1F44 006:159 JLINK_ReadReg(XPSR)  returns 0x21000000 (0000ms, 0529ms total)
T1F44 006:159 JLINK_ReadReg(MSP)  returns 0x20004670 (0000ms, 0529ms total)
T1F44 006:159 JLINK_ReadReg(PSP)  returns 0x00000000 (0000ms, 0529ms total)
T1F44 006:159 JLINK_ReadReg(CFBP)  returns 0x04000000 (0000ms, 0529ms total)
T1F44 006:159 JLINK_ReadReg(FPSCR)  returns 0x03000000 (0000ms, 0529ms total)
T1F44 006:159 JLINK_ReadReg(FPS0)  returns 0x00000000 (0000ms, 0529ms total)
T1F44 006:159 JLINK_ReadReg(FPS1)  returns 0x00000000 (0000ms, 0529ms total)
T1F44 006:159 JLINK_ReadReg(FPS2)  returns 0x00000000 (0000ms, 0529ms total)
T1F44 006:159 JLINK_ReadReg(FPS3)  returns 0x00000000 (0000ms, 0529ms total)
T1F44 006:159 JLINK_ReadReg(FPS4)  returns 0x00000000 (0000ms, 0529ms total)
T1F44 006:159 JLINK_ReadReg(FPS5)  returns 0x00000000 (0000ms, 0529ms total)
T1F44 006:159 JLINK_ReadReg(FPS6)  returns 0x00000000 (0000ms, 0529ms total)
T1F44 006:159 JLINK_ReadReg(FPS7)  returns 0x00000000 (0000ms, 0529ms total)
T1F44 006:159 JLINK_ReadReg(FPS8)  returns 0x00000000 (0000ms, 0529ms total)
T1F44 006:159 JLINK_ReadReg(FPS9)  returns 0x00000000 (0000ms, 0529ms total)
T1F44 006:159 JLINK_ReadReg(FPS10)  returns 0x00000000 (0000ms, 0529ms total)
T1F44 006:159 JLINK_ReadReg(FPS11)  returns 0x00000000 (0000ms, 0529ms total)
T1F44 006:159 JLINK_ReadReg(FPS12)  returns 0x00000000 (0000ms, 0529ms total)
T1F44 006:159 JLINK_ReadReg(FPS13)  returns 0x00000000 (0000ms, 0529ms total)
T1F44 006:159 JLINK_ReadReg(FPS14)  returns 0x00000000 (0000ms, 0529ms total)
T1F44 006:159 JLINK_ReadReg(FPS15)  returns 0x00000000 (0000ms, 0529ms total)
T1F44 006:159 JLINK_ReadReg(FPS16)  returns 0x00000000 (0000ms, 0529ms total)
T1F44 006:159 JLINK_ReadReg(FPS17)  returns 0x00000000 (0000ms, 0529ms total)
T1F44 006:159 JLINK_ReadReg(FPS18)  returns 0x00000000 (0000ms, 0529ms total)
T1F44 006:159 JLINK_ReadReg(FPS19)  returns 0x00000000 (0000ms, 0529ms total)
T1F44 006:159 JLINK_ReadReg(FPS20)  returns 0x00000000 (0000ms, 0529ms total)
T1F44 006:159 JLINK_ReadReg(FPS21)  returns 0x00000000 (0000ms, 0529ms total)
T1F44 006:159 JLINK_ReadReg(FPS22)  returns 0x00000000 (0000ms, 0529ms total)
T1F44 006:159 JLINK_ReadReg(FPS23)  returns 0x00000000 (0000ms, 0529ms total)
T1F44 006:159 JLINK_ReadReg(FPS24)  returns 0x00000000 (0000ms, 0529ms total)
T1F44 006:159 JLINK_ReadReg(FPS25)  returns 0x00000000 (0000ms, 0529ms total)
T1F44 006:159 JLINK_ReadReg(FPS26)  returns 0x00000000 (0000ms, 0529ms total)
T1F44 006:159 JLINK_ReadReg(FPS27)  returns 0x00000000 (0000ms, 0529ms total)
T1F44 006:159 JLINK_ReadReg(FPS28)  returns 0x00000000 (0000ms, 0529ms total)
T1F44 006:159 JLINK_ReadReg(FPS29)  returns 0x00000000 (0000ms, 0529ms total)
T1F44 006:159 JLINK_ReadReg(FPS30)  returns 0x00000000 (0000ms, 0529ms total)
T1F44 006:159 JLINK_ReadReg(FPS31)  returns 0x00000000 (0000ms, 0529ms total)
T2F2C 006:159 JLINK_ReadMemU32(0xE0001004, 0x0001 Items, ...) - Data: 96 4C 00 00  returns 0x01 (0000ms, 0529ms total)
T2F2C 006:162 JLINK_ReadMem (0x08000DC6, 0x0002 Bytes, ...) -- Read from C cache (2 bytes @ 0x08000DC6) - Data: FF F7  returns 0x00 (0000ms, 0529ms total)
T2F2C 006:162 JLINK_ReadMem (0x08000DC8, 0x003C Bytes, ...) -- CPU_ReadMem(64 bytes @ 0x08000E00) -- Updating C cache (64 bytes @ 0x08000E00) -- Read from C cache (60 bytes @ 0x08000DC8) - Data: F1 FD FF F7 7F FA FF F7 0B FB 00 24 10 E0 09 48 ...  returns 0x00 (0007ms, 0536ms total)
T1F44 006:707 JLINK_SetBPEx(Addr = 0x08000DCA, Type = 0xFFFFFFF2)  returns 0x00000002 (0000ms, 0536ms total)
T1F44 006:707 JLINK_Go() -- CPU_WriteMem(4 bytes @ 0xE0002000) -- CPU_ReadMem(4 bytes @ 0xE0001000) -- CPU_WriteMem(4 bytes @ 0xE0002008) -- CPU_WriteMem(4 bytes @ 0xE0001004) (0018ms, 0554ms total)
T1F44 006:826 JLINK_IsHalted()  returns TRUE (0021ms, 0575ms total)
T1F44 006:847 JLINK_Halt()  returns 0x00 (0000ms, 0554ms total)
T1F44 006:847 JLINK_IsHalted()  returns TRUE (0000ms, 0554ms total)
T1F44 006:847 JLINK_IsHalted()  returns TRUE (0000ms, 0554ms total)
T1F44 006:847 JLINK_IsHalted()  returns TRUE (0000ms, 0554ms total)
T1F44 006:847 JLINK_ReadReg(R15 (PC))  returns 0x08000DCA (0000ms, 0554ms total)
T1F44 006:847 JLINK_ReadReg(XPSR)  returns 0x21000000 (0000ms, 0554ms total)
T1F44 006:847 JLINK_ClrBPEx(BPHandle = 0x00000002)  returns 0x00 (0000ms, 0554ms total)
T1F44 006:847 JLINK_ReadMemU32(0xE000ED30, 0x0001 Items, ...) -- CPU_ReadMem(4 bytes @ 0xE000ED30) - Data: 03 00 00 00  returns 0x01 (0002ms, 0556ms total)
T1F44 006:849 JLINK_ReadMemU32(0xE0001028, 0x0001 Items, ...) -- CPU_ReadMem(4 bytes @ 0xE0001028) - Data: 00 00 00 00  returns 0x01 (0003ms, 0559ms total)
T1F44 006:852 JLINK_ReadMemU32(0xE0001038, 0x0001 Items, ...) -- CPU_ReadMem(4 bytes @ 0xE0001038) - Data: 00 02 00 00  returns 0x01 (0002ms, 0561ms total)
T1F44 006:854 JLINK_ReadMemU32(0xE0001048, 0x0001 Items, ...) -- CPU_ReadMem(4 bytes @ 0xE0001048) - Data: 00 00 00 00  returns 0x01 (0002ms, 0563ms total)
T1F44 006:856 JLINK_ReadMemU32(0xE0001058, 0x0001 Items, ...) -- CPU_ReadMem(4 bytes @ 0xE0001058) - Data: 00 00 00 00  returns 0x01 (0003ms, 0566ms total)
T1F44 006:859 JLINK_ReadReg(R0)  returns 0x40020000 (0000ms, 0566ms total)
T1F44 006:859 JLINK_ReadReg(R1)  returns 0x00000040 (0000ms, 0566ms total)
T1F44 006:859 JLINK_ReadReg(R2)  returns 0x00000040 (0000ms, 0566ms total)
T1F44 006:859 JLINK_ReadReg(R3)  returns 0x01000301 (0000ms, 0566ms total)
T1F44 006:859 JLINK_ReadReg(R4)  returns 0x00000000 (0000ms, 0566ms total)
T1F44 006:859 JLINK_ReadReg(R5)  returns 0x20000014 (0000ms, 0566ms total)
T1F44 006:859 JLINK_ReadReg(R6)  returns 0x00000000 (0000ms, 0566ms total)
T1F44 006:859 JLINK_ReadReg(R7)  returns 0x00000000 (0000ms, 0566ms total)
T1F44 006:859 JLINK_ReadReg(R8)  returns 0x00000000 (0000ms, 0566ms total)
T1F44 006:859 JLINK_ReadReg(R9)  returns 0x00000000 (0000ms, 0566ms total)
T1F44 006:859 JLINK_ReadReg(R10)  returns 0x08000E20 (0000ms, 0566ms total)
T1F44 006:859 JLINK_ReadReg(R11)  returns 0x00000000 (0000ms, 0566ms total)
T1F44 006:859 JLINK_ReadReg(R12)  returns 0x20000054 (0000ms, 0566ms total)
T1F44 006:859 JLINK_ReadReg(R13 (SP))  returns 0x20004670 (0000ms, 0566ms total)
T1F44 006:859 JLINK_ReadReg(R14)  returns 0x080009E3 (0000ms, 0566ms total)
T1F44 006:859 JLINK_ReadReg(R15 (PC))  returns 0x08000DCA (0001ms, 0567ms total)
T1F44 006:860 JLINK_ReadReg(XPSR)  returns 0x21000000 (0000ms, 0567ms total)
T1F44 006:860 JLINK_ReadReg(MSP)  returns 0x20004670 (0000ms, 0567ms total)
T1F44 006:860 JLINK_ReadReg(PSP)  returns 0x00000000 (0000ms, 0567ms total)
T1F44 006:860 JLINK_ReadReg(CFBP)  returns 0x04000000 (0000ms, 0567ms total)
T1F44 006:860 JLINK_ReadReg(FPSCR)  returns 0x03000000 (0033ms, 0600ms total)
T1F44 006:893 JLINK_ReadReg(FPS0)  returns 0x00000000 (0000ms, 0600ms total)
T1F44 006:893 JLINK_ReadReg(FPS1)  returns 0x00000000 (0000ms, 0600ms total)
T1F44 006:893 JLINK_ReadReg(FPS2)  returns 0x00000000 (0001ms, 0601ms total)
T1F44 006:894 JLINK_ReadReg(FPS3)  returns 0x00000000 (0000ms, 0601ms total)
T1F44 006:894 JLINK_ReadReg(FPS4)  returns 0x00000000 (0000ms, 0601ms total)
T1F44 006:894 JLINK_ReadReg(FPS5)  returns 0x00000000 (0000ms, 0601ms total)
T1F44 006:894 JLINK_ReadReg(FPS6)  returns 0x00000000 (0000ms, 0601ms total)
T1F44 006:894 JLINK_ReadReg(FPS7)  returns 0x00000000 (0000ms, 0601ms total)
T1F44 006:894 JLINK_ReadReg(FPS8)  returns 0x00000000 (0000ms, 0601ms total)
T1F44 006:894 JLINK_ReadReg(FPS9)  returns 0x00000000 (0000ms, 0601ms total)
T1F44 006:894 JLINK_ReadReg(FPS10)  returns 0x00000000 (0000ms, 0601ms total)
T1F44 006:894 JLINK_ReadReg(FPS11)  returns 0x00000000 (0000ms, 0601ms total)
T1F44 006:894 JLINK_ReadReg(FPS12)  returns 0x00000000 (0000ms, 0601ms total)
T1F44 006:894 JLINK_ReadReg(FPS13)  returns 0x00000000 (0000ms, 0601ms total)
T1F44 006:894 JLINK_ReadReg(FPS14)  returns 0x00000000 (0000ms, 0601ms total)
T1F44 006:894 JLINK_ReadReg(FPS15)  returns 0x00000000 (0000ms, 0601ms total)
T1F44 006:894 JLINK_ReadReg(FPS16)  returns 0x00000000 (0000ms, 0601ms total)
T1F44 006:894 JLINK_ReadReg(FPS17)  returns 0x00000000 (0000ms, 0601ms total)
T1F44 006:894 JLINK_ReadReg(FPS18)  returns 0x00000000 (0000ms, 0601ms total)
T1F44 006:894 JLINK_ReadReg(FPS19)  returns 0x00000000 (0000ms, 0601ms total)
T1F44 006:894 JLINK_ReadReg(FPS20)  returns 0x00000000 (0000ms, 0601ms total)
T1F44 006:894 JLINK_ReadReg(FPS21)  returns 0x00000000 (0000ms, 0601ms total)
T1F44 006:894 JLINK_ReadReg(FPS22)  returns 0x00000000 (0000ms, 0601ms total)
T1F44 006:894 JLINK_ReadReg(FPS23)  returns 0x00000000 (0000ms, 0601ms total)
T1F44 006:894 JLINK_ReadReg(FPS24)  returns 0x00000000 (0000ms, 0601ms total)
T1F44 006:894 JLINK_ReadReg(FPS25)  returns 0x00000000 (0000ms, 0601ms total)
T1F44 006:894 JLINK_ReadReg(FPS26)  returns 0x00000000 (0000ms, 0601ms total)
T1F44 006:894 JLINK_ReadReg(FPS27)  returns 0x00000000 (0000ms, 0601ms total)
T1F44 006:894 JLINK_ReadReg(FPS28)  returns 0x00000000 (0000ms, 0601ms total)
T1F44 006:894 JLINK_ReadReg(FPS29)  returns 0x00000000 (0000ms, 0601ms total)
T1F44 006:894 JLINK_ReadReg(FPS30)  returns 0x00000000 (0000ms, 0601ms total)
T1F44 006:894 JLINK_ReadReg(FPS31)  returns 0x00000000 (0000ms, 0601ms total)
T2F2C 006:894 JLINK_ReadMemU32(0xE0001004, 0x0001 Items, ...) -- CPU_ReadMem(4 bytes @ 0xE0001004) - Data: 2E 4E 00 00  returns 0x01 (0002ms, 0603ms total)
T2F2C 006:902 JLINK_ReadMem (0x08000DCA, 0x0002 Bytes, ...) -- CPU_ReadMem(64 bytes @ 0x08000DC0) -- Updating C cache (64 bytes @ 0x08000DC0) -- Read from C cache (2 bytes @ 0x08000DCA) - Data: FF F7  returns 0x00 (0007ms, 0610ms total)
T2F2C 006:909 JLINK_ReadMem (0x08000DCC, 0x003C Bytes, ...) -- CPU_ReadMem(64 bytes @ 0x08000E00) -- Updating C cache (64 bytes @ 0x08000E00) -- Read from C cache (60 bytes @ 0x08000DCC) - Data: 7F FA FF F7 0B FB 00 24 10 E0 09 48 C0 7A 01 28 ...  returns 0x00 (0007ms, 0617ms total)
T1F44 007:475 JLINK_SetBPEx(Addr = 0x08000DCE, Type = 0xFFFFFFF2)  returns 0x00000003 (0000ms, 0617ms total)
T1F44 007:475 JLINK_Go() -- CPU_WriteMem(4 bytes @ 0xE0002000) -- CPU_ReadMem(4 bytes @ 0xE0001000) -- CPU_WriteMem(4 bytes @ 0xE0002008) (0012ms, 0629ms total)
T1F44 007:588 JLINK_IsHalted()  returns TRUE (0021ms, 0650ms total)
T1F44 007:609 JLINK_Halt()  returns 0x00 (0000ms, 0629ms total)
T1F44 007:609 JLINK_IsHalted()  returns TRUE (0000ms, 0629ms total)
T1F44 007:609 JLINK_IsHalted()  returns TRUE (0000ms, 0629ms total)
T1F44 007:609 JLINK_IsHalted()  returns TRUE (0000ms, 0629ms total)
T1F44 007:609 JLINK_ReadReg(R15 (PC))  returns 0x08000DCE (0000ms, 0629ms total)
T1F44 007:609 JLINK_ReadReg(XPSR)  returns 0x01000000 (0000ms, 0629ms total)
T1F44 007:609 JLINK_ClrBPEx(BPHandle = 0x00000003)  returns 0x00 (0000ms, 0629ms total)
T1F44 007:609 JLINK_ReadMemU32(0xE000ED30, 0x0001 Items, ...) -- CPU_ReadMem(4 bytes @ 0xE000ED30) - Data: 03 00 00 00  returns 0x01 (0003ms, 0632ms total)
T1F44 007:612 JLINK_ReadMemU32(0xE0001028, 0x0001 Items, ...) -- CPU_ReadMem(4 bytes @ 0xE0001028) - Data: 00 00 00 00  returns 0x01 (0003ms, 0635ms total)
T1F44 007:615 JLINK_ReadMemU32(0xE0001038, 0x0001 Items, ...) -- CPU_ReadMem(4 bytes @ 0xE0001038) - Data: 00 02 00 00  returns 0x01 (0002ms, 0637ms total)
T1F44 007:617 JLINK_ReadMemU32(0xE0001048, 0x0001 Items, ...) -- CPU_ReadMem(4 bytes @ 0xE0001048) - Data: 00 00 00 00  returns 0x01 (0002ms, 0639ms total)
T1F44 007:619 JLINK_ReadMemU32(0xE0001058, 0x0001 Items, ...) -- CPU_ReadMem(4 bytes @ 0xE0001058) - Data: 00 00 00 00  returns 0x01 (0003ms, 0642ms total)
T1F44 007:622 JLINK_ReadReg(R0)  returns 0x40006400 (0000ms, 0642ms total)
T1F44 007:622 JLINK_ReadReg(R1)  returns 0x00000002 (0000ms, 0642ms total)
T1F44 007:622 JLINK_ReadReg(R2)  returns 0x00000001 (0000ms, 0642ms total)
T1F44 007:622 JLINK_ReadReg(R3)  returns 0x00000002 (0000ms, 0642ms total)
T1F44 007:622 JLINK_ReadReg(R4)  returns 0x00000000 (0000ms, 0642ms total)
T1F44 007:622 JLINK_ReadReg(R5)  returns 0x20000014 (0000ms, 0642ms total)
T1F44 007:622 JLINK_ReadReg(R6)  returns 0x00000000 (0000ms, 0642ms total)
T1F44 007:622 JLINK_ReadReg(R7)  returns 0x00000000 (0000ms, 0642ms total)
T1F44 007:622 JLINK_ReadReg(R8)  returns 0x00000000 (0000ms, 0642ms total)
T1F44 007:622 JLINK_ReadReg(R9)  returns 0x00000000 (0000ms, 0642ms total)
T1F44 007:622 JLINK_ReadReg(R10)  returns 0x08000E20 (0000ms, 0642ms total)
T1F44 007:622 JLINK_ReadReg(R11)  returns 0x00000000 (0000ms, 0642ms total)
T1F44 007:622 JLINK_ReadReg(R12)  returns 0x20000054 (0000ms, 0642ms total)
T1F44 007:622 JLINK_ReadReg(R13 (SP))  returns 0x20004670 (0000ms, 0642ms total)
T1F44 007:622 JLINK_ReadReg(R14)  returns 0x080003B9 (0000ms, 0642ms total)
T1F44 007:622 JLINK_ReadReg(R15 (PC))  returns 0x08000DCE (0000ms, 0642ms total)
T1F44 007:622 JLINK_ReadReg(XPSR)  returns 0x01000000 (0000ms, 0642ms total)
T1F44 007:622 JLINK_ReadReg(MSP)  returns 0x20004670 (0000ms, 0642ms total)
T1F44 007:622 JLINK_ReadReg(PSP)  returns 0x00000000 (0000ms, 0642ms total)
T1F44 007:622 JLINK_ReadReg(CFBP)  returns 0x04000000 (0000ms, 0642ms total)
T1F44 007:622 JLINK_ReadReg(FPSCR)  returns 0x03000000 (0034ms, 0676ms total)
T1F44 007:656 JLINK_ReadReg(FPS0)  returns 0x00000000 (0000ms, 0676ms total)
T1F44 007:656 JLINK_ReadReg(FPS1)  returns 0x00000000 (0000ms, 0676ms total)
T1F44 007:656 JLINK_ReadReg(FPS2)  returns 0x00000000 (0000ms, 0676ms total)
T1F44 007:656 JLINK_ReadReg(FPS3)  returns 0x00000000 (0000ms, 0676ms total)
T1F44 007:656 JLINK_ReadReg(FPS4)  returns 0x00000000 (0000ms, 0676ms total)
T1F44 007:656 JLINK_ReadReg(FPS5)  returns 0x00000000 (0000ms, 0676ms total)
T1F44 007:656 JLINK_ReadReg(FPS6)  returns 0x00000000 (0000ms, 0676ms total)
T1F44 007:656 JLINK_ReadReg(FPS7)  returns 0x00000000 (0000ms, 0676ms total)
T1F44 007:656 JLINK_ReadReg(FPS8)  returns 0x00000000 (0000ms, 0676ms total)
T1F44 007:656 JLINK_ReadReg(FPS9)  returns 0x00000000 (0000ms, 0676ms total)
T1F44 007:656 JLINK_ReadReg(FPS10)  returns 0x00000000 (0000ms, 0676ms total)
T1F44 007:656 JLINK_ReadReg(FPS11)  returns 0x00000000 (0000ms, 0676ms total)
T1F44 007:656 JLINK_ReadReg(FPS12)  returns 0x00000000 (0000ms, 0676ms total)
T1F44 007:656 JLINK_ReadReg(FPS13)  returns 0x00000000 (0000ms, 0676ms total)
T1F44 007:656 JLINK_ReadReg(FPS14)  returns 0x00000000 (0000ms, 0676ms total)
T1F44 007:656 JLINK_ReadReg(FPS15)  returns 0x00000000 (0000ms, 0676ms total)
T1F44 007:656 JLINK_ReadReg(FPS16)  returns 0x00000000 (0000ms, 0676ms total)
T1F44 007:656 JLINK_ReadReg(FPS17)  returns 0x00000000 (0000ms, 0676ms total)
T1F44 007:656 JLINK_ReadReg(FPS18)  returns 0x00000000 (0000ms, 0676ms total)
T1F44 007:656 JLINK_ReadReg(FPS19)  returns 0x00000000 (0000ms, 0676ms total)
T1F44 007:656 JLINK_ReadReg(FPS20)  returns 0x00000000 (0000ms, 0676ms total)
T1F44 007:656 JLINK_ReadReg(FPS21)  returns 0x00000000 (0000ms, 0676ms total)
T1F44 007:656 JLINK_ReadReg(FPS22)  returns 0x00000000 (0000ms, 0676ms total)
T1F44 007:656 JLINK_ReadReg(FPS23)  returns 0x00000000 (0000ms, 0676ms total)
T1F44 007:656 JLINK_ReadReg(FPS24)  returns 0x00000000 (0000ms, 0676ms total)
T1F44 007:656 JLINK_ReadReg(FPS25)  returns 0x00000000 (0000ms, 0676ms total)
T1F44 007:656 JLINK_ReadReg(FPS26)  returns 0x00000000 (0000ms, 0676ms total)
T1F44 007:656 JLINK_ReadReg(FPS27)  returns 0x00000000 (0000ms, 0676ms total)
T1F44 007:656 JLINK_ReadReg(FPS28)  returns 0x00000000 (0000ms, 0676ms total)
T1F44 007:656 JLINK_ReadReg(FPS29)  returns 0x00000000 (0000ms, 0676ms total)
T1F44 007:656 JLINK_ReadReg(FPS30)  returns 0x00000000 (0000ms, 0676ms total)
T1F44 007:656 JLINK_ReadReg(FPS31)  returns 0x00000000 (0000ms, 0676ms total)
T2F2C 007:656 JLINK_ReadMemU32(0xE0001004, 0x0001 Items, ...) -- CPU_ReadMem(4 bytes @ 0xE0001004) - Data: 34 63 00 00  returns 0x01 (0003ms, 0679ms total)
T1F44 008:300 JLINK_ReadMem (0x08000DCE, 0x0002 Bytes, ...) -- CPU_ReadMem(64 bytes @ 0x08000DC0) -- Updating C cache (64 bytes @ 0x08000DC0) -- Read from C cache (2 bytes @ 0x08000DCE) - Data: FF F7  returns 0x00 (0006ms, 0685ms total)
T1F44 008:306 JLINK_ReadMem (0x08000DD0, 0x003C Bytes, ...) -- CPU_ReadMem(64 bytes @ 0x08000E00) -- Updating C cache (64 bytes @ 0x08000E00) -- Read from C cache (60 bytes @ 0x08000DD0) - Data: 0B FB 00 24 10 E0 09 48 C0 7A 01 28 01 D1 01 24 ...  returns 0x00 (0007ms, 0692ms total)
T1F44 008:313 JLINK_SetBPEx(Addr = 0x08000DD2, Type = 0xFFFFFFF2)  returns 0x00000004 (0000ms, 0692ms total)
T1F44 008:313 JLINK_Go() -- CPU_WriteMem(4 bytes @ 0xE0002000) -- CPU_ReadMem(4 bytes @ 0xE0001000) -- CPU_WriteMem(4 bytes @ 0xE0002008) (0012ms, 0704ms total)
T1F44 008:426 JLINK_IsHalted()  returns TRUE (0021ms, 0725ms total)
T1F44 008:447 JLINK_Halt()  returns 0x00 (0001ms, 0705ms total)
T1F44 008:448 JLINK_IsHalted()  returns TRUE (0000ms, 0705ms total)
T1F44 008:448 JLINK_IsHalted()  returns TRUE (0000ms, 0705ms total)
T1F44 008:448 JLINK_IsHalted()  returns TRUE (0000ms, 0705ms total)
T1F44 008:448 JLINK_ReadReg(R15 (PC))  returns 0x08000DD2 (0000ms, 0705ms total)
T1F44 008:448 JLINK_ReadReg(XPSR)  returns 0x01000000 (0000ms, 0705ms total)
T1F44 008:448 JLINK_ClrBPEx(BPHandle = 0x00000004)  returns 0x00 (0000ms, 0705ms total)
T1F44 008:448 JLINK_ReadMemU32(0xE000ED30, 0x0001 Items, ...) -- CPU_ReadMem(4 bytes @ 0xE000ED30) - Data: 03 00 00 00  returns 0x01 (0002ms, 0707ms total)
T1F44 008:450 JLINK_ReadMemU32(0xE0001028, 0x0001 Items, ...) -- CPU_ReadMem(4 bytes @ 0xE0001028) - Data: 00 00 00 00  returns 0x01 (0002ms, 0709ms total)
T1F44 008:452 JLINK_ReadMemU32(0xE0001038, 0x0001 Items, ...) -- CPU_ReadMem(4 bytes @ 0xE0001038) - Data: 00 02 00 00  returns 0x01 (0002ms, 0711ms total)
T1F44 008:454 JLINK_ReadMemU32(0xE0001048, 0x0001 Items, ...) -- CPU_ReadMem(4 bytes @ 0xE0001048) - Data: 00 00 00 00  returns 0x01 (0003ms, 0714ms total)
T1F44 008:457 JLINK_ReadMemU32(0xE0001058, 0x0001 Items, ...) -- CPU_ReadMem(4 bytes @ 0xE0001058) - Data: 00 00 00 00  returns 0x01 (0002ms, 0716ms total)
T1F44 008:459 JLINK_ReadReg(R0)  returns 0x40006800 (0000ms, 0716ms total)
T1F44 008:459 JLINK_ReadReg(R1)  returns 0x00000002 (0000ms, 0716ms total)
T1F44 008:459 JLINK_ReadReg(R2)  returns 0x00000001 (0000ms, 0716ms total)
T1F44 008:459 JLINK_ReadReg(R3)  returns 0x00000002 (0000ms, 0716ms total)
T1F44 008:459 JLINK_ReadReg(R4)  returns 0x00000000 (0000ms, 0716ms total)
T1F44 008:459 JLINK_ReadReg(R5)  returns 0x20000014 (0000ms, 0716ms total)
T1F44 008:459 JLINK_ReadReg(R6)  returns 0x00000000 (0000ms, 0716ms total)
T1F44 008:459 JLINK_ReadReg(R7)  returns 0x00000000 (0000ms, 0716ms total)
T1F44 008:459 JLINK_ReadReg(R8)  returns 0x00000000 (0000ms, 0716ms total)
T1F44 008:459 JLINK_ReadReg(R9)  returns 0x00000000 (0000ms, 0716ms total)
T1F44 008:459 JLINK_ReadReg(R10)  returns 0x08000E20 (0000ms, 0716ms total)
T1F44 008:459 JLINK_ReadReg(R11)  returns 0x00000000 (0000ms, 0716ms total)
T1F44 008:459 JLINK_ReadReg(R12)  returns 0x20000054 (0000ms, 0716ms total)
T1F44 008:459 JLINK_ReadReg(R13 (SP))  returns 0x20004670 (0000ms, 0716ms total)
T1F44 008:459 JLINK_ReadReg(R14)  returns 0x080004DD (0000ms, 0716ms total)
T1F44 008:459 JLINK_ReadReg(R15 (PC))  returns 0x08000DD2 (0000ms, 0716ms total)
T1F44 008:459 JLINK_ReadReg(XPSR)  returns 0x01000000 (0000ms, 0716ms total)
T1F44 008:459 JLINK_ReadReg(MSP)  returns 0x20004670 (0000ms, 0716ms total)
T1F44 008:459 JLINK_ReadReg(PSP)  returns 0x00000000 (0000ms, 0716ms total)
T1F44 008:459 JLINK_ReadReg(CFBP)  returns 0x04000000 (0000ms, 0716ms total)
T1F44 008:459 JLINK_ReadReg(FPSCR)  returns 0x03000000 (0034ms, 0750ms total)
T1F44 008:493 JLINK_ReadReg(FPS0)  returns 0x00000000 (0000ms, 0750ms total)
T1F44 008:493 JLINK_ReadReg(FPS1)  returns 0x00000000 (0000ms, 0750ms total)
T1F44 008:493 JLINK_ReadReg(FPS2)  returns 0x00000000 (0000ms, 0750ms total)
T1F44 008:493 JLINK_ReadReg(FPS3)  returns 0x00000000 (0000ms, 0750ms total)
T1F44 008:493 JLINK_ReadReg(FPS4)  returns 0x00000000 (0000ms, 0750ms total)
T1F44 008:493 JLINK_ReadReg(FPS5)  returns 0x00000000 (0000ms, 0750ms total)
T1F44 008:493 JLINK_ReadReg(FPS6)  returns 0x00000000 (0000ms, 0750ms total)
T1F44 008:493 JLINK_ReadReg(FPS7)  returns 0x00000000 (0000ms, 0750ms total)
T1F44 008:493 JLINK_ReadReg(FPS8)  returns 0x00000000 (0000ms, 0750ms total)
T1F44 008:493 JLINK_ReadReg(FPS9)  returns 0x00000000 (0000ms, 0750ms total)
T1F44 008:493 JLINK_ReadReg(FPS10)  returns 0x00000000 (0000ms, 0750ms total)
T1F44 008:493 JLINK_ReadReg(FPS11)  returns 0x00000000 (0000ms, 0750ms total)
T1F44 008:493 JLINK_ReadReg(FPS12)  returns 0x00000000 (0000ms, 0750ms total)
T1F44 008:493 JLINK_ReadReg(FPS13)  returns 0x00000000 (0000ms, 0750ms total)
T1F44 008:493 JLINK_ReadReg(FPS14)  returns 0x00000000 (0000ms, 0750ms total)
T1F44 008:493 JLINK_ReadReg(FPS15)  returns 0x00000000 (0000ms, 0750ms total)
T1F44 008:493 JLINK_ReadReg(FPS16)  returns 0x00000000 (0000ms, 0750ms total)
T1F44 008:493 JLINK_ReadReg(FPS17)  returns 0x00000000 (0000ms, 0750ms total)
T1F44 008:493 JLINK_ReadReg(FPS18)  returns 0x00000000 (0000ms, 0750ms total)
T1F44 008:493 JLINK_ReadReg(FPS19)  returns 0x00000000 (0000ms, 0750ms total)
T1F44 008:493 JLINK_ReadReg(FPS20)  returns 0x00000000 (0000ms, 0750ms total)
T1F44 008:493 JLINK_ReadReg(FPS21)  returns 0x00000000 (0000ms, 0750ms total)
T1F44 008:493 JLINK_ReadReg(FPS22)  returns 0x00000000 (0000ms, 0750ms total)
T1F44 008:493 JLINK_ReadReg(FPS23)  returns 0x00000000 (0001ms, 0751ms total)
T1F44 008:494 JLINK_ReadReg(FPS24)  returns 0x00000000 (0000ms, 0751ms total)
T1F44 008:494 JLINK_ReadReg(FPS25)  returns 0x00000000 (0000ms, 0751ms total)
T1F44 008:494 JLINK_ReadReg(FPS26)  returns 0x00000000 (0000ms, 0751ms total)
T1F44 008:494 JLINK_ReadReg(FPS27)  returns 0x00000000 (0000ms, 0751ms total)
T1F44 008:494 JLINK_ReadReg(FPS28)  returns 0x00000000 (0000ms, 0751ms total)
T1F44 008:494 JLINK_ReadReg(FPS29)  returns 0x00000000 (0001ms, 0752ms total)
T1F44 008:495 JLINK_ReadReg(FPS30)  returns 0x00000000 (0000ms, 0752ms total)
T1F44 008:495 JLINK_ReadReg(FPS31)  returns 0x00000000 (0000ms, 0752ms total)
T2F2C 008:495 JLINK_ReadMemU32(0xE0001004, 0x0001 Items, ...) -- CPU_ReadMem(4 bytes @ 0xE0001004) - Data: 66 78 00 00  returns 0x01 (0003ms, 0755ms total)
T2F2C 008:500 JLINK_ReadMem (0x08000DD2, 0x0002 Bytes, ...) -- CPU_ReadMem(64 bytes @ 0x08000DC0) -- Updating C cache (64 bytes @ 0x08000DC0) -- Read from C cache (2 bytes @ 0x08000DD2) - Data: 00 24  returns 0x00 (0006ms, 0761ms total)
T2F2C 008:506 JLINK_ReadMem (0x08000DD4, 0x003C Bytes, ...) -- CPU_ReadMem(64 bytes @ 0x08000E00) -- Updating C cache (64 bytes @ 0x08000E00) -- Read from C cache (60 bytes @ 0x08000DD4) - Data: 10 E0 09 48 C0 7A 01 28 01 D1 01 24 00 E0 00 24 ...  returns 0x00 (0007ms, 0768ms total)
T1F44 008:940 JLINK_Step() -- Read from C cache (2 bytes @ 0x08000DD2) -- Simulated  returns 0x00 (0002ms, 0770ms total)
T1F44 008:942 JLINK_ReadReg(R15 (PC))  returns 0x08000DD4 (0000ms, 0770ms total)
T1F44 008:942 JLINK_ReadReg(XPSR)  returns 0x41000000 (0000ms, 0770ms total)
T1F44 008:942 JLINK_ReadReg(R0)  returns 0x40006800 (0000ms, 0770ms total)
T1F44 008:942 JLINK_ReadReg(R1)  returns 0x00000002 (0000ms, 0770ms total)
T1F44 008:942 JLINK_ReadReg(R2)  returns 0x00000001 (0000ms, 0770ms total)
T1F44 008:942 JLINK_ReadReg(R3)  returns 0x00000002 (0000ms, 0770ms total)
T1F44 008:942 JLINK_ReadReg(R4)  returns 0x00000000 (0000ms, 0770ms total)
T1F44 008:942 JLINK_ReadReg(R5)  returns 0x20000014 (0000ms, 0770ms total)
T1F44 008:942 JLINK_ReadReg(R6)  returns 0x00000000 (0000ms, 0770ms total)
T1F44 008:942 JLINK_ReadReg(R7)  returns 0x00000000 (0000ms, 0770ms total)
T1F44 008:942 JLINK_ReadReg(R8)  returns 0x00000000 (0000ms, 0770ms total)
T1F44 008:942 JLINK_ReadReg(R9)  returns 0x00000000 (0000ms, 0770ms total)
T1F44 008:942 JLINK_ReadReg(R10)  returns 0x08000E20 (0000ms, 0770ms total)
T1F44 008:942 JLINK_ReadReg(R11)  returns 0x00000000 (0000ms, 0770ms total)
T1F44 008:942 JLINK_ReadReg(R12)  returns 0x20000054 (0000ms, 0770ms total)
T1F44 008:942 JLINK_ReadReg(R13 (SP))  returns 0x20004670 (0000ms, 0770ms total)
T1F44 008:942 JLINK_ReadReg(R14)  returns 0x080004DD (0000ms, 0770ms total)
T1F44 008:942 JLINK_ReadReg(R15 (PC))  returns 0x08000DD4 (0000ms, 0770ms total)
T1F44 008:942 JLINK_ReadReg(XPSR)  returns 0x41000000 (0000ms, 0770ms total)
T1F44 008:942 JLINK_ReadReg(MSP)  returns 0x20004670 (0000ms, 0770ms total)
T1F44 008:942 JLINK_ReadReg(PSP)  returns 0x00000000 (0000ms, 0770ms total)
T1F44 008:942 JLINK_ReadReg(CFBP)  returns 0x04000000 (0000ms, 0770ms total)
T1F44 008:942 JLINK_ReadReg(FPSCR)  returns 0x03000000 (0000ms, 0770ms total)
T1F44 008:942 JLINK_ReadReg(FPS0)  returns 0x00000000 (0000ms, 0770ms total)
T1F44 008:942 JLINK_ReadReg(FPS1)  returns 0x00000000 (0000ms, 0770ms total)
T1F44 008:942 JLINK_ReadReg(FPS2)  returns 0x00000000 (0000ms, 0770ms total)
T1F44 008:942 JLINK_ReadReg(FPS3)  returns 0x00000000 (0000ms, 0770ms total)
T1F44 008:942 JLINK_ReadReg(FPS4)  returns 0x00000000 (0000ms, 0770ms total)
T1F44 008:942 JLINK_ReadReg(FPS5)  returns 0x00000000 (0000ms, 0770ms total)
T1F44 008:942 JLINK_ReadReg(FPS6)  returns 0x00000000 (0000ms, 0770ms total)
T1F44 008:942 JLINK_ReadReg(FPS7)  returns 0x00000000 (0000ms, 0770ms total)
T1F44 008:942 JLINK_ReadReg(FPS8)  returns 0x00000000 (0000ms, 0770ms total)
T1F44 008:942 JLINK_ReadReg(FPS9)  returns 0x00000000 (0000ms, 0770ms total)
T1F44 008:942 JLINK_ReadReg(FPS10)  returns 0x00000000 (0000ms, 0770ms total)
T1F44 008:942 JLINK_ReadReg(FPS11)  returns 0x00000000 (0000ms, 0770ms total)
T1F44 008:942 JLINK_ReadReg(FPS12)  returns 0x00000000 (0000ms, 0770ms total)
T1F44 008:942 JLINK_ReadReg(FPS13)  returns 0x00000000 (0000ms, 0770ms total)
T1F44 008:942 JLINK_ReadReg(FPS14)  returns 0x00000000 (0000ms, 0770ms total)
T1F44 008:942 JLINK_ReadReg(FPS15)  returns 0x00000000 (0000ms, 0770ms total)
T1F44 008:943 JLINK_ReadReg(FPS16)  returns 0x00000000 (0000ms, 0771ms total)
T1F44 008:943 JLINK_ReadReg(FPS17)  returns 0x00000000 (0000ms, 0771ms total)
T1F44 008:943 JLINK_ReadReg(FPS18)  returns 0x00000000 (0000ms, 0771ms total)
T1F44 008:943 JLINK_ReadReg(FPS19)  returns 0x00000000 (0000ms, 0771ms total)
T1F44 008:943 JLINK_ReadReg(FPS20)  returns 0x00000000 (0000ms, 0771ms total)
T1F44 008:943 JLINK_ReadReg(FPS21)  returns 0x00000000 (0000ms, 0771ms total)
T1F44 008:943 JLINK_ReadReg(FPS22)  returns 0x00000000 (0000ms, 0771ms total)
T1F44 008:943 JLINK_ReadReg(FPS23)  returns 0x00000000 (0000ms, 0771ms total)
T1F44 008:943 JLINK_ReadReg(FPS24)  returns 0x00000000 (0000ms, 0771ms total)
T1F44 008:943 JLINK_ReadReg(FPS25)  returns 0x00000000 (0000ms, 0771ms total)
T1F44 008:943 JLINK_ReadReg(FPS26)  returns 0x00000000 (0000ms, 0771ms total)
T1F44 008:943 JLINK_ReadReg(FPS27)  returns 0x00000000 (0000ms, 0771ms total)
T1F44 008:943 JLINK_ReadReg(FPS28)  returns 0x00000000 (0000ms, 0771ms total)
T1F44 008:943 JLINK_ReadReg(FPS29)  returns 0x00000000 (0000ms, 0771ms total)
T1F44 008:943 JLINK_ReadReg(FPS30)  returns 0x00000000 (0000ms, 0771ms total)
T1F44 008:943 JLINK_ReadReg(FPS31)  returns 0x00000000 (0000ms, 0771ms total)
T2F2C 008:943 JLINK_ReadMemU32(0xE0001004, 0x0001 Items, ...) - Data: 67 78 00 00  returns 0x01 (0000ms, 0771ms total)
T2F2C 008:946 JLINK_ReadMem (0x08000DD4, 0x003C Bytes, ...) -- Read from C cache (60 bytes @ 0x08000DD4) - Data: 10 E0 09 48 C0 7A 01 28 01 D1 01 24 00 E0 00 24 ...  returns 0x00 (0000ms, 0771ms total)
T1F44 009:570 JLINK_Step() -- Read from C cache (2 bytes @ 0x08000DD4) -- Simulated  returns 0x00 (0002ms, 0773ms total)
T1F44 009:572 JLINK_ReadReg(R15 (PC))  returns 0x08000DF8 (0000ms, 0773ms total)
T1F44 009:572 JLINK_ReadReg(XPSR)  returns 0x41000000 (0000ms, 0773ms total)
T1F44 009:572 JLINK_Step() -- Read from C cache (2 bytes @ 0x08000DF8) -- Simulated  returns 0x00 (0000ms, 0773ms total)
T1F44 009:572 JLINK_ReadReg(R15 (PC))  returns 0x08000DD6 (0000ms, 0773ms total)
T1F44 009:572 JLINK_ReadReg(XPSR)  returns 0x41000000 (0000ms, 0773ms total)
T1F44 009:572 JLINK_ReadReg(R0)  returns 0x40006800 (0000ms, 0773ms total)
T1F44 009:572 JLINK_ReadReg(R1)  returns 0x00000002 (0000ms, 0773ms total)
T1F44 009:572 JLINK_ReadReg(R2)  returns 0x00000001 (0000ms, 0773ms total)
T1F44 009:572 JLINK_ReadReg(R3)  returns 0x00000002 (0000ms, 0773ms total)
T1F44 009:572 JLINK_ReadReg(R4)  returns 0x00000000 (0000ms, 0773ms total)
T1F44 009:572 JLINK_ReadReg(R5)  returns 0x20000014 (0000ms, 0773ms total)
T1F44 009:572 JLINK_ReadReg(R6)  returns 0x00000000 (0000ms, 0773ms total)
T1F44 009:572 JLINK_ReadReg(R7)  returns 0x00000000 (0000ms, 0773ms total)
T1F44 009:572 JLINK_ReadReg(R8)  returns 0x00000000 (0000ms, 0773ms total)
T1F44 009:572 JLINK_ReadReg(R9)  returns 0x00000000 (0000ms, 0773ms total)
T1F44 009:572 JLINK_ReadReg(R10)  returns 0x08000E20 (0000ms, 0773ms total)
T1F44 009:572 JLINK_ReadReg(R11)  returns 0x00000000 (0000ms, 0773ms total)
T1F44 009:572 JLINK_ReadReg(R12)  returns 0x20000054 (0001ms, 0774ms total)
T1F44 009:573 JLINK_ReadReg(R13 (SP))  returns 0x20004670 (0000ms, 0774ms total)
T1F44 009:573 JLINK_ReadReg(R14)  returns 0x080004DD (0000ms, 0774ms total)
T1F44 009:573 JLINK_ReadReg(R15 (PC))  returns 0x08000DD6 (0000ms, 0774ms total)
T1F44 009:573 JLINK_ReadReg(XPSR)  returns 0x41000000 (0000ms, 0774ms total)
T1F44 009:573 JLINK_ReadReg(MSP)  returns 0x20004670 (0000ms, 0774ms total)
T1F44 009:573 JLINK_ReadReg(PSP)  returns 0x00000000 (0000ms, 0774ms total)
T1F44 009:573 JLINK_ReadReg(CFBP)  returns 0x04000000 (0000ms, 0774ms total)
T1F44 009:573 JLINK_ReadReg(FPSCR)  returns 0x03000000 (0000ms, 0774ms total)
T1F44 009:573 JLINK_ReadReg(FPS0)  returns 0x00000000 (0000ms, 0774ms total)
T1F44 009:573 JLINK_ReadReg(FPS1)  returns 0x00000000 (0000ms, 0774ms total)
T1F44 009:573 JLINK_ReadReg(FPS2)  returns 0x00000000 (0000ms, 0774ms total)
T1F44 009:573 JLINK_ReadReg(FPS3)  returns 0x00000000 (0000ms, 0774ms total)
T1F44 009:573 JLINK_ReadReg(FPS4)  returns 0x00000000 (0000ms, 0774ms total)
T1F44 009:573 JLINK_ReadReg(FPS5)  returns 0x00000000 (0000ms, 0774ms total)
T1F44 009:573 JLINK_ReadReg(FPS6)  returns 0x00000000 (0000ms, 0774ms total)
T1F44 009:573 JLINK_ReadReg(FPS7)  returns 0x00000000 (0000ms, 0774ms total)
T1F44 009:573 JLINK_ReadReg(FPS8)  returns 0x00000000 (0000ms, 0774ms total)
T1F44 009:573 JLINK_ReadReg(FPS9)  returns 0x00000000 (0000ms, 0774ms total)
T1F44 009:573 JLINK_ReadReg(FPS10)  returns 0x00000000 (0000ms, 0774ms total)
T1F44 009:573 JLINK_ReadReg(FPS11)  returns 0x00000000 (0000ms, 0774ms total)
T1F44 009:573 JLINK_ReadReg(FPS12)  returns 0x00000000 (0000ms, 0774ms total)
T1F44 009:573 JLINK_ReadReg(FPS13)  returns 0x00000000 (0000ms, 0774ms total)
T1F44 009:573 JLINK_ReadReg(FPS14)  returns 0x00000000 (0000ms, 0774ms total)
T1F44 009:573 JLINK_ReadReg(FPS15)  returns 0x00000000 (0000ms, 0774ms total)
T1F44 009:573 JLINK_ReadReg(FPS16)  returns 0x00000000 (0000ms, 0774ms total)
T1F44 009:573 JLINK_ReadReg(FPS17)  returns 0x00000000 (0000ms, 0774ms total)
T1F44 009:573 JLINK_ReadReg(FPS18)  returns 0x00000000 (0000ms, 0774ms total)
T1F44 009:573 JLINK_ReadReg(FPS19)  returns 0x00000000 (0000ms, 0774ms total)
T1F44 009:573 JLINK_ReadReg(FPS20)  returns 0x00000000 (0000ms, 0774ms total)
T1F44 009:573 JLINK_ReadReg(FPS21)  returns 0x00000000 (0000ms, 0774ms total)
T1F44 009:573 JLINK_ReadReg(FPS22)  returns 0x00000000 (0000ms, 0774ms total)
T1F44 009:573 JLINK_ReadReg(FPS23)  returns 0x00000000 (0000ms, 0774ms total)
T1F44 009:573 JLINK_ReadReg(FPS24)  returns 0x00000000 (0000ms, 0774ms total)
T1F44 009:573 JLINK_ReadReg(FPS25)  returns 0x00000000 (0000ms, 0774ms total)
T1F44 009:573 JLINK_ReadReg(FPS26)  returns 0x00000000 (0000ms, 0774ms total)
T1F44 009:573 JLINK_ReadReg(FPS27)  returns 0x00000000 (0000ms, 0774ms total)
T1F44 009:573 JLINK_ReadReg(FPS28)  returns 0x00000000 (0000ms, 0774ms total)
T1F44 009:573 JLINK_ReadReg(FPS29)  returns 0x00000000 (0000ms, 0774ms total)
T1F44 009:573 JLINK_ReadReg(FPS30)  returns 0x00000000 (0000ms, 0774ms total)
T1F44 009:573 JLINK_ReadReg(FPS31)  returns 0x00000000 (0000ms, 0774ms total)
T2F2C 009:573 JLINK_ReadMemU32(0xE0001004, 0x0001 Items, ...) - Data: 69 78 00 00  returns 0x01 (0000ms, 0774ms total)
